T4D60 000:003.612   SEGGER J-Link V7.88m Log File
T4D60 000:003.704   DLL Compiled: Jul 19 2023 14:22:09
T4D60 000:003.708   Logging started @ 2025-02-25 08:29
T4D60 000:003.711 - 3.713ms
T4D60 000:003.717 JLINK_SetWarnOutHandler(...)
T4D60 000:003.721 - 0.006ms
T4D60 000:003.725 JLINK_OpenEx(...)
T4D60 000:006.034   Firmware: J-Link V11 compiled Jun 20 2023 17:59:57
T4D60 000:006.539   Firmware: J-Link V11 compiled Jun 20 2023 17:59:57
T4D60 000:025.879   Hardware: V11.00
T4D60 000:025.900   S/N: 261008717
T4D60 000:025.905   OEM: SEGGER-EDU
T4D60 000:025.910   Feature(s): FlashBP, GDB
T4D60 000:027.834   Bootloader: 2019 Jul 04
T4D60 000:028.640   USB speed mode: High speed (480 MBit/s)
T4D60 000:029.109   TELNET listener socket opened on port 19021
T4D60 000:029.228   WEBSRV WEBSRV_Init(): Starting webserver thread(s)
T4D60 000:029.351   WEBSRV Webserver running on local port 19080
T4D60 000:029.427   Looking for J-Link GUI Server exe at: D:\0_Software\Keil_v5\ARM\Segger\JLinkGUIServer.exe
T4D60 000:029.482   Looking for J-Link GUI Server exe at: D:\0_Software\WF_WORK\JLink\JLink\JLinkGUIServer.exe
T4D60 000:029.502   Forking J-Link GUI Server: D:\0_Software\WF_WORK\JLink\JLink\JLinkGUIServer.exe
T4D60 000:053.874   J-Link GUI Server info: "J-Link GUI server V7.88m "
T4D60 000:063.967 - 60.260ms returns "O.K."
T4D60 000:064.003 JLINK_GetEmuCaps()
T4D60 000:064.008 - 0.006ms returns 0xB9FF7BBF
T4D60 000:064.018 JLINK_TIF_GetAvailable(...)
T4D60 000:064.455 - 0.446ms
T4D60 000:064.469 JLINK_SetErrorOutHandler(...)
T4D60 000:064.473 - 0.005ms
T4D60 000:064.489 JLINK_ExecCommand("ProjectFile = "D:\1_Document\LCJ\Code_Repo\Work\TLE9879\debug_250225\ELOP187_GEELY_9879_120W_V2.2_01\JLinkSettings.ini"", ...). 
T4D60 000:073.193   Ref file found at: D:\0_Software\Keil_v5\ARM\Segger\JLinkDevices.ref
T4D60 000:073.273   REF file references invalid XML file: D:\0_Software\WF_WORK\JLink\JLink\JLinkDevices.xml
T4D60 000:074.566   Device "TLE9879" selected.
T4D60 000:074.791 - 10.308ms returns 0x00
T4D60 000:075.670 JLINK_ExecCommand("Device = TLE9879QXW40", ...). 
T4D60 000:076.503   Device "TLE9879" selected.
T4D60 000:076.733 - 1.056ms returns 0x00
T4D60 000:076.744 JLINK_ExecCommand("DisableConnectionTimeout", ...). 
T4D60 000:076.749 - 0.002ms returns 0x01
T4D60 000:076.755 JLINK_GetHardwareVersion()
T4D60 000:076.759 - 0.006ms returns 110000
T4D60 000:076.766 JLINK_GetDLLVersion()
T4D60 000:076.770 - 0.004ms returns 78813
T4D60 000:076.774 JLINK_GetOEMString(...)
T4D60 000:078.776 JLINK_GetDLLVersion()
T4D60 000:078.791 - 0.016ms returns 78813
T4D60 000:078.796 JLINK_GetCompileDateTime()
T4D60 000:078.799 - 0.004ms
T4D60 000:079.414 JLINK_GetFirmwareString(...)
T4D60 000:079.422 - 0.010ms
T4D60 000:080.029 JLINK_GetHardwareVersion()
T4D60 000:080.036 - 0.009ms returns 110000
T4D60 000:080.633 JLINK_GetSN()
T4D60 000:080.641 - 0.010ms returns 261008717
T4D60 000:081.243 JLINK_GetOEMString(...)
T4D60 000:086.696 JLINK_TIF_Select(JLINKARM_TIF_SWD)
T4D60 000:088.054 - 1.360ms returns 0x00
T4D60 000:088.060 JLINK_HasError()
T4D60 000:088.071 JLINK_SetSpeed(50000)
T4D60 000:088.385 - 0.316ms
T4D60 000:088.391 JLINK_GetId()
T4D60 000:091.299   InitTarget() start
T4D60 000:091.310    J-Link Script File: Executing InitTarget()
T4D60 000:148.411   InitTarget() end - Took 54.2ms
T4D60 000:151.665   Found SW-DP with ID 0x2BA01477
T4D60 000:157.123   DPIDR: 0x2BA01477
T4D60 000:160.366   CoreSight SoC-400 or earlier
T4D60 000:163.501   Scanning AP map to find all available APs
T4D60 000:166.841   AP[1]: Stopped AP scan as end of AP map has been reached
T4D60 000:169.360   AP[0]: AHB-AP (IDR: 0x24770011)
T4D60 000:171.902   Iterating through AP map to find AHB-AP to use
T4D60 000:176.788   AP[0]: Core found
T4D60 000:179.702   AP[0]: AHB-AP ROM base: 0xE00FF000
T4D60 000:182.542   CPUID register: 0x412FC231. Implementer code: 0x41 (ARM)
T4D60 000:186.760   Found Cortex-M3 r2p1, Little endian.
T4D60 000:187.561   -- Max. mem block: 0x00004E50
T4D60 000:188.229   CPU_ReadMem(4 bytes @ 0xE000EDF0)
T4D60 000:188.732   CPU_ReadMem(4 bytes @ 0xE0002000)
T4D60 000:191.216   FPUnit: 2 code (BP) slots and 0 literal slots
T4D60 000:191.239   CPU_ReadMem(4 bytes @ 0xE000EDFC)
T4D60 000:191.595   CPU_WriteMem(4 bytes @ 0xE000EDFC)
T4D60 000:191.975   CPU_ReadMem(4 bytes @ 0xE0001000)
T4D60 000:192.313   CPU_WriteMem(4 bytes @ 0xE0001000)
T4D60 000:192.729   CPU_ReadMem(4 bytes @ 0xE000ED88)
T4D60 000:193.115   CPU_WriteMem(4 bytes @ 0xE000ED88)
T4D60 000:193.461   CPU_ReadMem(4 bytes @ 0xE000ED88)
T4D60 000:193.844   CPU_WriteMem(4 bytes @ 0xE000ED88)
T4D60 000:197.018   CoreSight components:
T4D60 000:199.200   ROMTbl[0] @ E00FF000
T4D60 000:199.220   CPU_ReadMem(64 bytes @ 0xE00FF000)
T4D60 000:199.727   CPU_ReadMem(32 bytes @ 0xE000EFE0)
T4D60 000:202.541   [0][0]: E000E000 CID B105E00D PID 000BB000 SCS
T4D60 000:202.554   CPU_ReadMem(32 bytes @ 0xE0001FE0)
T4D60 000:204.987   [0][1]: E0001000 CID B105E00D PID 003BB002 DWT
T4D60 000:205.000   CPU_ReadMem(32 bytes @ 0xE0002FE0)
T4D60 000:207.356   [0][2]: E0002000 CID B105E00D PID 002BB003 FPB
T4D60 000:207.697 - 119.308ms returns 0x2BA01477
T4D60 000:207.709 JLINK_GetDLLVersion()
T4D60 000:207.713 - 0.005ms returns 78813
T4D60 000:207.751 JLINK_CORE_GetFound()
T4D60 000:207.754 - 0.005ms returns 0x30000FF
T4D60 000:207.760 JLINK_GetDebugInfo(0x100 = JLINKARM_ROM_TABLE_ADDR_INDEX)
T4D60 000:207.764   Value=0xE00FF000
T4D60 000:207.768 - 0.010ms returns 0
T4D60 000:209.962 JLINK_GetDebugInfo(0x100 = JLINKARM_ROM_TABLE_ADDR_INDEX)
T4D60 000:209.972   Value=0xE00FF000
T4D60 000:209.977 - 0.016ms returns 0
T4D60 000:209.981 JLINK_GetDebugInfo(0x101 = JLINKARM_DEBUG_INFO_ETM_ADDR_INDEX)
T4D60 000:209.985   Value=0x00000000
T4D60 000:209.989 - 0.009ms returns 0
T4D60 000:209.996 JLINK_ReadMemEx(0xE0041FF0, 0x10 Bytes, Flags = 0x02000004)
T4D60 000:210.015   CPU_ReadMem(16 bytes @ 0xE0041FF0)
T4D60 000:210.401   Data:  00 00 00 00 00 00 00 00 00 00 00 00 00 00 00 00
T4D60 000:210.409 - 0.415ms returns 16 (0x10)
T4D60 000:210.415 JLINK_GetDebugInfo(0x102 = JLINKARM_DEBUG_INFO_MTB_ADDR_INDEX)
T4D60 000:210.419   Value=0x00000000
T4D60 000:210.423 - 0.009ms returns 0
T4D60 000:210.427 JLINK_GetDebugInfo(0x103 = JLINKARM_DEBUG_INFO_TPIU_ADDR_INDEX)
T4D60 000:210.430   Value=0x00000000
T4D60 000:210.435 - 0.009ms returns 0
T4D60 000:210.439 JLINK_ReadMemEx(0xE0040FF0, 0x10 Bytes, Flags = 0x02000004)
T4D60 000:210.447   CPU_ReadMem(16 bytes @ 0xE0040FF0)
T4D60 000:210.835   Data:  00 00 00 00 00 00 00 00 00 00 00 00 00 00 00 00
T4D60 000:210.840 - 0.403ms returns 16 (0x10)
T4D60 000:210.845 JLINK_GetDebugInfo(0x104 = JLINKARM_DEBUG_INFO_ITM_ADDR_INDEX)
T4D60 000:210.849   Value=0xE0000000
T4D60 000:210.853 - 0.009ms returns 0
T4D60 000:210.857 JLINK_GetDebugInfo(0x105 = JLINKARM_DEBUG_INFO_DWT_ADDR_INDEX)
T4D60 000:210.861   Value=0xE0001000
T4D60 000:210.865 - 0.009ms returns 0
T4D60 000:210.869 JLINK_GetDebugInfo(0x106 = JLINKARM_DEBUG_INFO_FPB_ADDR_INDEX)
T4D60 000:210.872   Value=0xE0002000
T4D60 000:210.876 - 0.009ms returns 0
T4D60 000:210.880 JLINK_GetDebugInfo(0x107 = JLINKARM_DEBUG_INFO_NVIC_ADDR_INDEX)
T4D60 000:210.883   Value=0xE000E000
T4D60 000:210.888 - 0.009ms returns 0
T4D60 000:210.891 JLINK_GetDebugInfo(0x10C = JLINKARM_DEBUG_INFO_DBG_ADDR_INDEX)
T4D60 000:210.895   Value=0xE000EDF0
T4D60 000:210.899 - 0.009ms returns 0
T4D60 000:210.903 JLINK_GetDebugInfo(0x01 = Unknown)
T4D60 000:210.908   Value=0x00000000
T4D60 000:210.912 - 0.010ms returns 0
T4D60 000:210.916 JLINK_ReadMemU32(0xE000ED00, 0x1 Items)
T4D60 000:210.921   CPU_ReadMem(4 bytes @ 0xE000ED00)
T4D60 000:211.274   Data:  31 C2 2F 41
T4D60 000:211.280   Debug reg: CPUID
T4D60 000:211.285 - 0.370ms returns 1 (0x1)
T4D60 000:211.290 JLINK_GetDebugInfo(0x10F = JLINKARM_DEBUG_INFO_HAS_CORTEX_M_SECURITY_EXT_INDEX)
T4D60 000:211.293   Value=0x00000000
T4D60 000:211.298 - 0.009ms returns 0
T4D60 000:211.302 JLINK_HasError()
T4D60 000:211.307 JLINK_SetResetType(JLINKARM_CM3_RESET_TYPE_NORMAL)
T4D60 000:211.311 - 0.005ms returns JLINKARM_CM3_RESET_TYPE_NORMAL
T4D60 000:211.319 JLINK_Reset()
T4D60 000:213.988   ResetTarget() start
T4D60 000:214.015    J-Link Script File: Executing ResetTarget()
T4D60 000:215.427   CPU_ReadMem(64 bytes @ 0x11000000)
T4D60 000:215.915    -- Updating C cache (64 bytes @ 0x11000000)
T4D60 000:215.926    -- Read from C cache (4 bytes @ 0x11000004)
T4D60 000:215.938   CPU_WriteMem(4 bytes @ 0xE0002000)
T4D60 000:216.361   CPU_ReadMem(4 bytes @ 0xE0002008)
T4D60 000:216.802   CPU_WriteMem(4 bytes @ 0xE0002008)
T4D60 000:217.155   CPU_WriteMem(4 bytes @ 0xE000ED0C)
T4D60 000:319.552   CPU_WriteMem(4 bytes @ 0xE0002008)
T4D60 000:322.419   ResetTarget() end - Took 105ms
T4D60 000:323.749   CPU_WriteMem(4 bytes @ 0xE0002000)
T4D60 000:324.155   CPU_ReadMem(4 bytes @ 0xE000EDFC)
T4D60 000:324.545   CPU_ReadMem(4 bytes @ 0xE0001000)
T4D60 000:325.111 - 113.795ms
T4D60 000:325.124 JLINK_Halt()
T4D60 000:325.128 - 0.005ms returns 0x00
T4D60 000:325.133 JLINK_ReadMemU32(0xE000EDF0, 0x1 Items)
T4D60 000:325.143   CPU_ReadMem(4 bytes @ 0xE000EDF0)
T4D60 000:325.629   Data:  03 00 03 00
T4D60 000:325.641   Debug reg: DHCSR
T4D60 000:325.645 - 0.514ms returns 1 (0x1)
T4D60 000:325.654 JLINK_WriteU32_64(0xE000EDF0, 0xA05F0003)
T4D60 000:325.658   Debug reg: DHCSR
T4D60 000:325.935   CPU_WriteMem(4 bytes @ 0xE000EDF0)
T4D60 000:326.305 - 0.653ms returns 0 (0x00000000)
T4D60 000:326.313 JLINK_WriteU32_64(0xE000EDFC, 0x01000000)
T4D60 000:326.317   Debug reg: DEMCR
T4D60 000:326.325   CPU_WriteMem(4 bytes @ 0xE000EDFC)
T4D60 000:326.708 - 0.396ms returns 0 (0x00000000)
T4D60 000:336.998 JLINK_GetHWStatus(...)
T4D60 000:337.410 - 0.422ms returns 0
T4D60 000:347.828 JLINK_GetNumBPUnits(Type = 0xFFFFFF00)
T4D60 000:347.859 - 0.032ms returns 0x02
T4D60 000:347.864 JLINK_GetNumBPUnits(Type = 0xF0)
T4D60 000:347.868 - 0.005ms returns 0x2000
T4D60 000:347.872 JLINK_GetNumWPUnits()
T4D60 000:347.875 - 0.004ms returns 1
T4D60 000:354.778 JLINK_GetSpeed()
T4D60 000:354.794 - 0.017ms returns 15000
T4D60 000:366.268 JLINK_ReadMemU32(0xE000E004, 0x1 Items)
T4D60 000:366.311   CPU_ReadMem(4 bytes @ 0xE000E004)
T4D60 000:366.727   Data:  00 00 00 00
T4D60 000:366.735 - 0.468ms returns 1 (0x1)
T4D60 000:366.742 JLINK_ReadMemU32(0xE000E004, 0x1 Items)
T4D60 000:366.749   CPU_ReadMem(4 bytes @ 0xE000E004)
T4D60 000:367.094   Data:  00 00 00 00
T4D60 000:367.100 - 0.359ms returns 1 (0x1)
T4D60 000:367.105 JLINK_WriteMemEx(0xE0001000, 0x0000001C Bytes, Flags = 0x02000004)
T4D60 000:367.109   Data:  01 00 00 00 00 00 00 00 00 00 00 00 00 00 00 00 ...
T4D60 000:367.124   CPU_WriteMem(28 bytes @ 0xE0001000)
T4D60 000:367.539 - 0.437ms returns 0x1C
T4D60 000:367.550 JLINK_Halt()
T4D60 000:367.554 - 0.005ms returns 0x00
T4D60 000:367.558 JLINK_IsHalted()
T4D60 000:367.562 - 0.005ms returns TRUE
T4D60 000:370.614 JLINK_WriteMem(0x18000018, 0xD8 Bytes, ...)
T4D60 000:370.625   Data:  00 BE 0A E0 0D 78 2D 06 68 40 08 24 40 00 00 D3 ...
T4D60 000:370.853   CPU_WriteMem(216 bytes @ 0x18000018)
T4D60 000:371.599 - 1.001ms returns 0xD8
T4D60 000:371.647 JLINK_HasError()
T4D60 000:371.653 JLINK_WriteReg(R0, 0x11000000)
T4D60 000:371.664 - 0.012ms returns 0
T4D60 000:371.668 JLINK_WriteReg(R1, 0x00B71B00)
T4D60 000:371.672 - 0.005ms returns 0
T4D60 000:371.675 JLINK_WriteReg(R2, 0x00000001)
T4D60 000:371.679 - 0.004ms returns 0
T4D60 000:371.682 JLINK_WriteReg(R3, 0x00000000)
T4D60 000:371.686 - 0.004ms returns 0
T4D60 000:371.690 JLINK_WriteReg(R4, 0x00000000)
T4D60 000:371.693 - 0.004ms returns 0
T4D60 000:371.697 JLINK_WriteReg(R5, 0x00000000)
T4D60 000:371.700 - 0.004ms returns 0
T4D60 000:371.704 JLINK_WriteReg(R6, 0x00000000)
T4D60 000:371.707 - 0.004ms returns 0
T4D60 000:371.710 JLINK_WriteReg(R7, 0x00000000)
T4D60 000:371.714 - 0.004ms returns 0
T4D60 000:371.717 JLINK_WriteReg(R8, 0x00000000)
T4D60 000:371.723 - 0.007ms returns 0
T4D60 000:371.727 JLINK_WriteReg(R9, 0x180000CC)
T4D60 000:371.730 - 0.004ms returns 0
T4D60 000:371.734 JLINK_WriteReg(R10, 0x00000000)
T4D60 000:371.737 - 0.007ms returns 0
T4D60 000:371.744 JLINK_WriteReg(R11, 0x00000000)
T4D60 000:371.747 - 0.004ms returns 0
T4D60 000:371.751 JLINK_WriteReg(R12, 0x00000000)
T4D60 000:371.754 - 0.004ms returns 0
T4D60 000:371.758 JLINK_WriteReg(R13 (SP), 0x18001018)
T4D60 000:371.762 - 0.005ms returns 0
T4D60 000:371.765 JLINK_WriteReg(R14, 0x18000019)
T4D60 000:371.769 - 0.004ms returns 0
T4D60 000:371.772 JLINK_WriteReg(R15 (PC), 0x18000038)
T4D60 000:371.777 - 0.006ms returns 0
T4D60 000:371.781 JLINK_WriteReg(XPSR, 0x01000000)
T4D60 000:371.784 - 0.004ms returns 0
T4D60 000:371.788 JLINK_WriteReg(MSP, 0x18001018)
T4D60 000:371.791 - 0.004ms returns 0
T4D60 000:371.795 JLINK_WriteReg(PSP, 0x18001018)
T4D60 000:371.798 - 0.004ms returns 0
T4D60 000:371.802 JLINK_WriteReg(CFBP, 0x00000000)
T4D60 000:371.805 - 0.004ms returns 0
T4D60 000:371.809 JLINK_SetBPEx(Addr = 0x18000018, Type = 0xFFFFFFF2)
T4D60 000:371.814 - 0.006ms returns 0x00000001
T4D60 000:371.818 JLINK_Go()
T4D60 000:371.825   CPU_WriteMem(4 bytes @ 0xE0002000)
T4D60 000:372.261   CPU_ReadMem(4 bytes @ 0xE0001000)
T4D60 000:372.671   CPU_WriteMem(4 bytes @ 0xE0002008)
T4D60 000:372.679   CPU_WriteMem(4 bytes @ 0xE000200C)
T4D60 000:373.254   CPU_WriteMem(4 bytes @ 0xE0001004)
T4D60 000:375.050 - 3.238ms
T4D60 000:375.062 JLINK_IsHalted()
T4D60 000:376.440 - 1.386ms returns TRUE
T4D60 000:376.455 JLINK_ReadReg(R15 (PC))
T4D60 000:376.461 - 0.008ms returns 0x18000018
T4D60 000:376.466 JLINK_ClrBPEx(BPHandle = 0x00000001)
T4D60 000:376.470 - 0.005ms returns 0x00
T4D60 000:376.475 JLINK_ReadReg(R0)
T4D60 000:376.478 - 0.005ms returns 0x00000000
T4D60 000:376.853 JLINK_HasError()
T4D60 000:376.866 JLINK_WriteReg(R0, 0x11000000)
T4D60 000:376.872 - 0.008ms returns 0
T4D60 000:376.883 JLINK_WriteReg(R1, 0x00001000)
T4D60 000:376.887 - 0.006ms returns 0
T4D60 000:376.930 JLINK_WriteReg(R2, 0x000000FF)
T4D60 000:376.935 - 0.006ms returns 0
T4D60 000:376.939 JLINK_WriteReg(R3, 0x00000000)
T4D60 000:376.942 - 0.005ms returns 0
T4D60 000:376.946 JLINK_WriteReg(R4, 0x00000000)
T4D60 000:376.950 - 0.005ms returns 0
T4D60 000:376.953 JLINK_WriteReg(R5, 0x00000000)
T4D60 000:376.957 - 0.005ms returns 0
T4D60 000:376.961 JLINK_WriteReg(R6, 0x00000000)
T4D60 000:376.964 - 0.004ms returns 0
T4D60 000:376.968 JLINK_WriteReg(R7, 0x00000000)
T4D60 000:376.971 - 0.005ms returns 0
T4D60 000:376.975 JLINK_WriteReg(R8, 0x00000000)
T4D60 000:376.978 - 0.005ms returns 0
T4D60 000:376.982 JLINK_WriteReg(R9, 0x180000CC)
T4D60 000:376.985 - 0.004ms returns 0
T4D60 000:376.989 JLINK_WriteReg(R10, 0x00000000)
T4D60 000:376.993 - 0.004ms returns 0
T4D60 000:376.996 JLINK_WriteReg(R11, 0x00000000)
T4D60 000:377.000 - 0.004ms returns 0
T4D60 000:377.004 JLINK_WriteReg(R12, 0x00000000)
T4D60 000:377.007 - 0.004ms returns 0
T4D60 000:377.011 JLINK_WriteReg(R13 (SP), 0x18001018)
T4D60 000:377.014 - 0.005ms returns 0
T4D60 000:377.018 JLINK_WriteReg(R14, 0x18000019)
T4D60 000:377.022 - 0.005ms returns 0
T4D60 000:377.026 JLINK_WriteReg(R15 (PC), 0x180000A8)
T4D60 000:377.029 - 0.005ms returns 0
T4D60 000:377.033 JLINK_WriteReg(XPSR, 0x01000000)
T4D60 000:377.037 - 0.005ms returns 0
T4D60 000:377.041 JLINK_WriteReg(MSP, 0x18001018)
T4D60 000:377.044 - 0.005ms returns 0
T4D60 000:377.048 JLINK_WriteReg(PSP, 0x18001018)
T4D60 000:377.051 - 0.005ms returns 0
T4D60 000:377.055 JLINK_WriteReg(CFBP, 0x00000000)
T4D60 000:377.058 - 0.005ms returns 0
T4D60 000:377.062 JLINK_SetBPEx(Addr = 0x18000018, Type = 0xFFFFFFF2)
T4D60 000:377.067 - 0.006ms returns 0x00000002
T4D60 000:377.071 JLINK_Go()
T4D60 000:377.080   CPU_WriteMem(4 bytes @ 0xE0002000)
T4D60 000:377.495   CPU_ReadMem(4 bytes @ 0xE0001000)
T4D60 000:379.159 - 2.093ms
T4D60 000:379.171 JLINK_IsHalted()
T4D60 000:380.524 - 1.358ms returns TRUE
T4D60 000:380.533 JLINK_ReadReg(R15 (PC))
T4D60 000:380.539 - 0.007ms returns 0x18000018
T4D60 000:380.543 JLINK_ClrBPEx(BPHandle = 0x00000002)
T4D60 000:380.547 - 0.005ms returns 0x00
T4D60 000:380.551 JLINK_ReadReg(R0)
T4D60 000:380.738 - 0.190ms returns 0x00000001
T4D60 000:380.745 JLINK_HasError()
T4D60 000:380.749 JLINK_WriteReg(R0, 0x11000000)
T4D60 000:380.753 - 0.005ms returns 0
T4D60 000:380.768 JLINK_WriteReg(R1, 0x00001000)
T4D60 000:380.772 - 0.005ms returns 0
T4D60 000:380.775 JLINK_WriteReg(R2, 0x000000FF)
T4D60 000:380.779 - 0.005ms returns 0
T4D60 000:380.783 JLINK_WriteReg(R3, 0x00000000)
T4D60 000:380.786 - 0.004ms returns 0
T4D60 000:380.790 JLINK_WriteReg(R4, 0x00000000)
T4D60 000:380.793 - 0.005ms returns 0
T4D60 000:380.797 JLINK_WriteReg(R5, 0x00000000)
T4D60 000:380.800 - 0.005ms returns 0
T4D60 000:380.804 JLINK_WriteReg(R6, 0x00000000)
T4D60 000:380.807 - 0.005ms returns 0
T4D60 000:380.811 JLINK_WriteReg(R7, 0x00000000)
T4D60 000:380.815 - 0.005ms returns 0
T4D60 000:380.818 JLINK_WriteReg(R8, 0x00000000)
T4D60 000:380.822 - 0.005ms returns 0
T4D60 000:380.826 JLINK_WriteReg(R9, 0x180000CC)
T4D60 000:380.829 - 0.005ms returns 0
T4D60 000:380.833 JLINK_WriteReg(R10, 0x00000000)
T4D60 000:380.836 - 0.005ms returns 0
T4D60 000:380.840 JLINK_WriteReg(R11, 0x00000000)
T4D60 000:380.844 - 0.004ms returns 0
T4D60 000:380.847 JLINK_WriteReg(R12, 0x00000000)
T4D60 000:380.851 - 0.004ms returns 0
T4D60 000:380.855 JLINK_WriteReg(R13 (SP), 0x18001018)
T4D60 000:380.858 - 0.005ms returns 0
T4D60 000:380.862 JLINK_WriteReg(R14, 0x18000019)
T4D60 000:380.866 - 0.005ms returns 0
T4D60 000:380.869 JLINK_WriteReg(R15 (PC), 0x18000062)
T4D60 000:380.873 - 0.005ms returns 0
T4D60 000:380.877 JLINK_WriteReg(XPSR, 0x01000000)
T4D60 000:380.880 - 0.005ms returns 0
T4D60 000:380.884 JLINK_WriteReg(MSP, 0x18001018)
T4D60 000:380.887 - 0.005ms returns 0
T4D60 000:380.891 JLINK_WriteReg(PSP, 0x18001018)
T4D60 000:380.895 - 0.004ms returns 0
T4D60 000:380.898 JLINK_WriteReg(CFBP, 0x00000000)
T4D60 000:380.902 - 0.005ms returns 0
T4D60 000:380.906 JLINK_SetBPEx(Addr = 0x18000018, Type = 0xFFFFFFF2)
T4D60 000:380.910 - 0.005ms returns 0x00000003
T4D60 000:380.914 JLINK_Go()
T4D60 000:380.922   CPU_WriteMem(4 bytes @ 0xE0002000)
T4D60 000:381.439   CPU_ReadMem(4 bytes @ 0xE0001000)
T4D60 000:383.192 - 2.282ms
T4D60 000:383.200 JLINK_IsHalted()
T4D60 000:383.562 - 0.364ms returns FALSE
T4D60 000:383.568 JLINK_HasError()
T4D60 000:394.371 JLINK_IsHalted()
T4D60 000:395.746 - 1.406ms returns TRUE
T4D60 000:395.783 JLINK_ReadReg(R15 (PC))
T4D60 000:395.789 - 0.007ms returns 0x18000018
T4D60 000:395.794 JLINK_ClrBPEx(BPHandle = 0x00000003)
T4D60 000:395.799 - 0.006ms returns 0x00
T4D60 000:395.803 JLINK_ReadReg(R0)
T4D60 000:395.807 - 0.005ms returns 0x00000000
T4D60 000:396.304 JLINK_HasError()
T4D60 000:396.313 JLINK_WriteReg(R0, 0x11001000)
T4D60 000:396.319 - 0.007ms returns 0
T4D60 000:396.324 JLINK_WriteReg(R1, 0x00001000)
T4D60 000:396.327 - 0.005ms returns 0
T4D60 000:396.331 JLINK_WriteReg(R2, 0x000000FF)
T4D60 000:396.335 - 0.004ms returns 0
T4D60 000:396.338 JLINK_WriteReg(R3, 0x00000000)
T4D60 000:396.342 - 0.005ms returns 0
T4D60 000:396.346 JLINK_WriteReg(R4, 0x00000000)
T4D60 000:396.349 - 0.005ms returns 0
T4D60 000:396.353 JLINK_WriteReg(R5, 0x00000000)
T4D60 000:396.356 - 0.004ms returns 0
T4D60 000:396.360 JLINK_WriteReg(R6, 0x00000000)
T4D60 000:396.363 - 0.004ms returns 0
T4D60 000:396.367 JLINK_WriteReg(R7, 0x00000000)
T4D60 000:396.371 - 0.005ms returns 0
T4D60 000:396.374 JLINK_WriteReg(R8, 0x00000000)
T4D60 000:396.378 - 0.005ms returns 0
T4D60 000:396.382 JLINK_WriteReg(R9, 0x180000CC)
T4D60 000:396.385 - 0.005ms returns 0
T4D60 000:396.389 JLINK_WriteReg(R10, 0x00000000)
T4D60 000:396.392 - 0.017ms returns 0
T4D60 000:396.409 JLINK_WriteReg(R11, 0x00000000)
T4D60 000:396.413 - 0.006ms returns 0
T4D60 000:396.417 JLINK_WriteReg(R12, 0x00000000)
T4D60 000:396.421 - 0.005ms returns 0
T4D60 000:396.424 JLINK_WriteReg(R13 (SP), 0x18001018)
T4D60 000:396.429 - 0.005ms returns 0
T4D60 000:396.432 JLINK_WriteReg(R14, 0x18000019)
T4D60 000:396.436 - 0.005ms returns 0
T4D60 000:396.440 JLINK_WriteReg(R15 (PC), 0x180000A8)
T4D60 000:396.443 - 0.009ms returns 0
T4D60 000:396.453 JLINK_WriteReg(XPSR, 0x01000000)
T4D60 000:396.457 - 0.005ms returns 0
T4D60 000:396.460 JLINK_WriteReg(MSP, 0x18001018)
T4D60 000:396.464 - 0.004ms returns 0
T4D60 000:396.468 JLINK_WriteReg(PSP, 0x18001018)
T4D60 000:396.471 - 0.005ms returns 0
T4D60 000:396.475 JLINK_WriteReg(CFBP, 0x00000000)
T4D60 000:396.478 - 0.005ms returns 0
T4D60 000:396.482 JLINK_SetBPEx(Addr = 0x18000018, Type = 0xFFFFFFF2)
T4D60 000:396.487 - 0.006ms returns 0x00000004
T4D60 000:396.491 JLINK_Go()
T4D60 000:396.499   CPU_WriteMem(4 bytes @ 0xE0002000)
T4D60 000:396.920   CPU_ReadMem(4 bytes @ 0xE0001000)
T4D60 000:398.572 - 2.083ms
T4D60 000:398.579 JLINK_IsHalted()
T4D60 000:399.852 - 1.280ms returns TRUE
T4D60 000:399.863 JLINK_ReadReg(R15 (PC))
T4D60 000:399.869 - 0.007ms returns 0x18000018
T4D60 000:399.874 JLINK_ClrBPEx(BPHandle = 0x00000004)
T4D60 000:399.878 - 0.006ms returns 0x00
T4D60 000:399.883 JLINK_ReadReg(R0)
T4D60 000:399.886 - 0.005ms returns 0x00000001
T4D60 000:399.891 JLINK_HasError()
T4D60 000:399.896 JLINK_WriteReg(R0, 0x11001000)
T4D60 000:399.900 - 0.005ms returns 0
T4D60 000:399.904 JLINK_WriteReg(R1, 0x00001000)
T4D60 000:399.907 - 0.005ms returns 0
T4D60 000:399.911 JLINK_WriteReg(R2, 0x000000FF)
T4D60 000:399.915 - 0.005ms returns 0
T4D60 000:399.919 JLINK_WriteReg(R3, 0x00000000)
T4D60 000:399.922 - 0.005ms returns 0
T4D60 000:399.926 JLINK_WriteReg(R4, 0x00000000)
T4D60 000:399.929 - 0.005ms returns 0
T4D60 000:399.933 JLINK_WriteReg(R5, 0x00000000)
T4D60 000:399.937 - 0.005ms returns 0
T4D60 000:399.941 JLINK_WriteReg(R6, 0x00000000)
T4D60 000:399.944 - 0.005ms returns 0
T4D60 000:399.948 JLINK_WriteReg(R7, 0x00000000)
T4D60 000:399.956 - 0.009ms returns 0
T4D60 000:399.960 JLINK_WriteReg(R8, 0x00000000)
T4D60 000:399.963 - 0.005ms returns 0
T4D60 000:399.967 JLINK_WriteReg(R9, 0x180000CC)
T4D60 000:400.000 - 0.034ms returns 0
T4D60 000:400.004 JLINK_WriteReg(R10, 0x00000000)
T4D60 000:400.008 - 0.005ms returns 0
T4D60 000:400.012 JLINK_WriteReg(R11, 0x00000000)
T4D60 000:400.015 - 0.005ms returns 0
T4D60 000:400.019 JLINK_WriteReg(R12, 0x00000000)
T4D60 000:400.022 - 0.005ms returns 0
T4D60 000:400.026 JLINK_WriteReg(R13 (SP), 0x18001018)
T4D60 000:400.030 - 0.005ms returns 0
T4D60 000:400.034 JLINK_WriteReg(R14, 0x18000019)
T4D60 000:400.039 - 0.006ms returns 0
T4D60 000:400.042 JLINK_WriteReg(R15 (PC), 0x18000062)
T4D60 000:400.046 - 0.005ms returns 0
T4D60 000:400.050 JLINK_WriteReg(XPSR, 0x01000000)
T4D60 000:400.053 - 0.005ms returns 0
T4D60 000:400.057 JLINK_WriteReg(MSP, 0x18001018)
T4D60 000:400.060 - 0.005ms returns 0
T4D60 000:400.064 JLINK_WriteReg(PSP, 0x18001018)
T4D60 000:400.067 - 0.004ms returns 0
T4D60 000:400.071 JLINK_WriteReg(CFBP, 0x00000000)
T4D60 000:400.075 - 0.005ms returns 0
T4D60 000:400.079 JLINK_SetBPEx(Addr = 0x18000018, Type = 0xFFFFFFF2)
T4D60 000:400.083 - 0.005ms returns 0x00000005
T4D60 000:400.087 JLINK_Go()
T4D60 000:400.093   CPU_WriteMem(4 bytes @ 0xE0002000)
T4D60 000:400.540   CPU_ReadMem(4 bytes @ 0xE0001000)
T4D60 000:402.213 - 2.133ms
T4D60 000:402.225 JLINK_IsHalted()
T4D60 000:402.608 - 0.388ms returns FALSE
T4D60 000:402.619 JLINK_HasError()
T4D60 000:403.821 JLINK_IsHalted()
T4D60 000:404.273 - 0.458ms returns FALSE
T4D60 000:404.284 JLINK_HasError()
T4D60 000:405.794 JLINK_IsHalted()
T4D60 000:407.110 - 1.321ms returns TRUE
T4D60 000:407.119 JLINK_ReadReg(R15 (PC))
T4D60 000:407.124 - 0.006ms returns 0x18000018
T4D60 000:407.128 JLINK_ClrBPEx(BPHandle = 0x00000005)
T4D60 000:407.132 - 0.005ms returns 0x00
T4D60 000:407.143 JLINK_ReadReg(R0)
T4D60 000:407.147 - 0.005ms returns 0x00000000
T4D60 000:407.688 JLINK_HasError()
T4D60 000:407.697 JLINK_WriteReg(R0, 0x11002000)
T4D60 000:407.703 - 0.007ms returns 0
T4D60 000:407.707 JLINK_WriteReg(R1, 0x00001000)
T4D60 000:407.711 - 0.005ms returns 0
T4D60 000:407.715 JLINK_WriteReg(R2, 0x000000FF)
T4D60 000:407.718 - 0.005ms returns 0
T4D60 000:407.722 JLINK_WriteReg(R3, 0x00000000)
T4D60 000:407.725 - 0.007ms returns 0
T4D60 000:407.732 JLINK_WriteReg(R4, 0x00000000)
T4D60 000:407.736 - 0.004ms returns 0
T4D60 000:407.739 JLINK_WriteReg(R5, 0x00000000)
T4D60 000:407.743 - 0.004ms returns 0
T4D60 000:407.746 JLINK_WriteReg(R6, 0x00000000)
T4D60 000:407.750 - 0.004ms returns 0
T4D60 000:407.754 JLINK_WriteReg(R7, 0x00000000)
T4D60 000:407.757 - 0.004ms returns 0
T4D60 000:407.761 JLINK_WriteReg(R8, 0x00000000)
T4D60 000:407.765 - 0.006ms returns 0
T4D60 000:407.769 JLINK_WriteReg(R9, 0x180000CC)
T4D60 000:407.774 - 0.006ms returns 0
T4D60 000:407.778 JLINK_WriteReg(R10, 0x00000000)
T4D60 000:407.782 - 0.005ms returns 0
T4D60 000:407.785 JLINK_WriteReg(R11, 0x00000000)
T4D60 000:407.789 - 0.004ms returns 0
T4D60 000:407.792 JLINK_WriteReg(R12, 0x00000000)
T4D60 000:407.796 - 0.004ms returns 0
T4D60 000:407.799 JLINK_WriteReg(R13 (SP), 0x18001018)
T4D60 000:407.803 - 0.005ms returns 0
T4D60 000:407.807 JLINK_WriteReg(R14, 0x18000019)
T4D60 000:407.810 - 0.004ms returns 0
T4D60 000:407.814 JLINK_WriteReg(R15 (PC), 0x180000A8)
T4D60 000:407.817 - 0.005ms returns 0
T4D60 000:407.821 JLINK_WriteReg(XPSR, 0x01000000)
T4D60 000:407.824 - 0.004ms returns 0
T4D60 000:407.828 JLINK_WriteReg(MSP, 0x18001018)
T4D60 000:407.831 - 0.004ms returns 0
T4D60 000:407.835 JLINK_WriteReg(PSP, 0x18001018)
T4D60 000:407.838 - 0.004ms returns 0
T4D60 000:407.842 JLINK_WriteReg(CFBP, 0x00000000)
T4D60 000:407.845 - 0.004ms returns 0
T4D60 000:407.849 JLINK_SetBPEx(Addr = 0x18000018, Type = 0xFFFFFFF2)
T4D60 000:407.854 - 0.005ms returns 0x00000006
T4D60 000:407.858 JLINK_Go()
T4D60 000:407.864   CPU_WriteMem(4 bytes @ 0xE0002000)
T4D60 000:408.277   CPU_ReadMem(4 bytes @ 0xE0001000)
T4D60 000:410.090 - 2.237ms
T4D60 000:410.100 JLINK_IsHalted()
T4D60 000:411.462 - 1.370ms returns TRUE
T4D60 000:411.475 JLINK_ReadReg(R15 (PC))
T4D60 000:411.481 - 0.008ms returns 0x18000018
T4D60 000:411.486 JLINK_ClrBPEx(BPHandle = 0x00000006)
T4D60 000:411.491 - 0.006ms returns 0x00
T4D60 000:411.495 JLINK_ReadReg(R0)
T4D60 000:411.499 - 0.005ms returns 0x00000001
T4D60 000:411.503 JLINK_HasError()
T4D60 000:411.508 JLINK_WriteReg(R0, 0x11002000)
T4D60 000:411.512 - 0.005ms returns 0
T4D60 000:411.516 JLINK_WriteReg(R1, 0x00001000)
T4D60 000:411.519 - 0.005ms returns 0
T4D60 000:411.523 JLINK_WriteReg(R2, 0x000000FF)
T4D60 000:411.527 - 0.005ms returns 0
T4D60 000:411.531 JLINK_WriteReg(R3, 0x00000000)
T4D60 000:411.534 - 0.005ms returns 0
T4D60 000:411.538 JLINK_WriteReg(R4, 0x00000000)
T4D60 000:411.541 - 0.004ms returns 0
T4D60 000:411.545 JLINK_WriteReg(R5, 0x00000000)
T4D60 000:411.548 - 0.005ms returns 0
T4D60 000:411.552 JLINK_WriteReg(R6, 0x00000000)
T4D60 000:411.556 - 0.005ms returns 0
T4D60 000:411.559 JLINK_WriteReg(R7, 0x00000000)
T4D60 000:411.563 - 0.004ms returns 0
T4D60 000:411.567 JLINK_WriteReg(R8, 0x00000000)
T4D60 000:411.570 - 0.004ms returns 0
T4D60 000:411.574 JLINK_WriteReg(R9, 0x180000CC)
T4D60 000:411.577 - 0.004ms returns 0
T4D60 000:411.581 JLINK_WriteReg(R10, 0x00000000)
T4D60 000:411.584 - 0.005ms returns 0
T4D60 000:411.588 JLINK_WriteReg(R11, 0x00000000)
T4D60 000:411.591 - 0.005ms returns 0
T4D60 000:411.595 JLINK_WriteReg(R12, 0x00000000)
T4D60 000:411.598 - 0.004ms returns 0
T4D60 000:411.602 JLINK_WriteReg(R13 (SP), 0x18001018)
T4D60 000:411.606 - 0.005ms returns 0
T4D60 000:411.610 JLINK_WriteReg(R14, 0x18000019)
T4D60 000:411.613 - 0.005ms returns 0
T4D60 000:411.617 JLINK_WriteReg(R15 (PC), 0x18000062)
T4D60 000:411.621 - 0.005ms returns 0
T4D60 000:411.625 JLINK_WriteReg(XPSR, 0x01000000)
T4D60 000:411.628 - 0.005ms returns 0
T4D60 000:411.632 JLINK_WriteReg(MSP, 0x18001018)
T4D60 000:411.635 - 0.005ms returns 0
T4D60 000:411.639 JLINK_WriteReg(PSP, 0x18001018)
T4D60 000:411.643 - 0.005ms returns 0
T4D60 000:411.646 JLINK_WriteReg(CFBP, 0x00000000)
T4D60 000:411.650 - 0.005ms returns 0
T4D60 000:411.654 JLINK_SetBPEx(Addr = 0x18000018, Type = 0xFFFFFFF2)
T4D60 000:411.658 - 0.006ms returns 0x00000007
T4D60 000:411.662 JLINK_Go()
T4D60 000:411.676   CPU_WriteMem(4 bytes @ 0xE0002000)
T4D60 000:412.041   CPU_ReadMem(4 bytes @ 0xE0001000)
T4D60 000:413.748 - 2.090ms
T4D60 000:413.757 JLINK_IsHalted()
T4D60 000:414.124 - 0.371ms returns FALSE
T4D60 000:414.132 JLINK_HasError()
T4D60 000:415.262 JLINK_IsHalted()
T4D60 000:415.683 - 0.424ms returns FALSE
T4D60 000:415.689 JLINK_HasError()
T4D60 000:416.902 JLINK_IsHalted()
T4D60 000:417.294 - 0.398ms returns FALSE
T4D60 000:417.305 JLINK_HasError()
T4D60 000:418.415 JLINK_IsHalted()
T4D60 000:419.745 - 1.334ms returns TRUE
T4D60 000:419.753 JLINK_ReadReg(R15 (PC))
T4D60 000:419.758 - 0.006ms returns 0x18000018
T4D60 000:419.762 JLINK_ClrBPEx(BPHandle = 0x00000007)
T4D60 000:419.767 - 0.005ms returns 0x00
T4D60 000:419.771 JLINK_ReadReg(R0)
T4D60 000:419.774 - 0.005ms returns 0x00000000
T4D60 000:420.415 JLINK_HasError()
T4D60 000:420.426 JLINK_WriteReg(R0, 0x11003000)
T4D60 000:420.431 - 0.007ms returns 0
T4D60 000:420.435 JLINK_WriteReg(R1, 0x00001000)
T4D60 000:420.439 - 0.005ms returns 0
T4D60 000:420.443 JLINK_WriteReg(R2, 0x000000FF)
T4D60 000:420.446 - 0.004ms returns 0
T4D60 000:420.450 JLINK_WriteReg(R3, 0x00000000)
T4D60 000:420.453 - 0.004ms returns 0
T4D60 000:420.457 JLINK_WriteReg(R4, 0x00000000)
T4D60 000:420.460 - 0.004ms returns 0
T4D60 000:420.464 JLINK_WriteReg(R5, 0x00000000)
T4D60 000:420.467 - 0.004ms returns 0
T4D60 000:420.471 JLINK_WriteReg(R6, 0x00000000)
T4D60 000:420.474 - 0.004ms returns 0
T4D60 000:420.477 JLINK_WriteReg(R7, 0x00000000)
T4D60 000:420.481 - 0.004ms returns 0
T4D60 000:420.484 JLINK_WriteReg(R8, 0x00000000)
T4D60 000:420.487 - 0.004ms returns 0
T4D60 000:420.491 JLINK_WriteReg(R9, 0x180000CC)
T4D60 000:420.494 - 0.004ms returns 0
T4D60 000:420.498 JLINK_WriteReg(R10, 0x00000000)
T4D60 000:420.501 - 0.004ms returns 0
T4D60 000:420.505 JLINK_WriteReg(R11, 0x00000000)
T4D60 000:420.508 - 0.004ms returns 0
T4D60 000:420.512 JLINK_WriteReg(R12, 0x00000000)
T4D60 000:420.515 - 0.004ms returns 0
T4D60 000:420.518 JLINK_WriteReg(R13 (SP), 0x18001018)
T4D60 000:420.522 - 0.005ms returns 0
T4D60 000:420.526 JLINK_WriteReg(R14, 0x18000019)
T4D60 000:420.529 - 0.004ms returns 0
T4D60 000:420.533 JLINK_WriteReg(R15 (PC), 0x180000A8)
T4D60 000:420.536 - 0.004ms returns 0
T4D60 000:420.542 JLINK_WriteReg(XPSR, 0x01000000)
T4D60 000:420.546 - 0.005ms returns 0
T4D60 000:420.549 JLINK_WriteReg(MSP, 0x18001018)
T4D60 000:420.552 - 0.004ms returns 0
T4D60 000:420.556 JLINK_WriteReg(PSP, 0x18001018)
T4D60 000:420.559 - 0.004ms returns 0
T4D60 000:420.563 JLINK_WriteReg(CFBP, 0x00000000)
T4D60 000:420.566 - 0.004ms returns 0
T4D60 000:420.570 JLINK_SetBPEx(Addr = 0x18000018, Type = 0xFFFFFFF2)
T4D60 000:420.574 - 0.006ms returns 0x00000008
T4D60 000:420.578 JLINK_Go()
T4D60 000:420.585   CPU_WriteMem(4 bytes @ 0xE0002000)
T4D60 000:420.964   CPU_ReadMem(4 bytes @ 0xE0001000)
T4D60 000:422.621 - 2.044ms
T4D60 000:422.626 JLINK_IsHalted()
T4D60 000:424.016 - 1.395ms returns TRUE
T4D60 000:424.026 JLINK_ReadReg(R15 (PC))
T4D60 000:424.032 - 0.008ms returns 0x18000018
T4D60 000:424.037 JLINK_ClrBPEx(BPHandle = 0x00000008)
T4D60 000:424.042 - 0.007ms returns 0x00
T4D60 000:424.047 JLINK_ReadReg(R0)
T4D60 000:424.052 - 0.006ms returns 0x00000001
T4D60 000:424.057 JLINK_HasError()
T4D60 000:424.062 JLINK_WriteReg(R0, 0x11003000)
T4D60 000:424.067 - 0.007ms returns 0
T4D60 000:424.072 JLINK_WriteReg(R1, 0x00001000)
T4D60 000:424.076 - 0.006ms returns 0
T4D60 000:424.081 JLINK_WriteReg(R2, 0x000000FF)
T4D60 000:424.086 - 0.006ms returns 0
T4D60 000:424.090 JLINK_WriteReg(R3, 0x00000000)
T4D60 000:424.095 - 0.006ms returns 0
T4D60 000:424.099 JLINK_WriteReg(R4, 0x00000000)
T4D60 000:424.104 - 0.006ms returns 0
T4D60 000:424.108 JLINK_WriteReg(R5, 0x00000000)
T4D60 000:424.112 - 0.004ms returns 0
T4D60 000:424.115 JLINK_WriteReg(R6, 0x00000000)
T4D60 000:424.119 - 0.004ms returns 0
T4D60 000:424.122 JLINK_WriteReg(R7, 0x00000000)
T4D60 000:424.130 - 0.009ms returns 0
T4D60 000:424.134 JLINK_WriteReg(R8, 0x00000000)
T4D60 000:424.187 - 0.056ms returns 0
T4D60 000:424.192 JLINK_WriteReg(R9, 0x180000CC)
T4D60 000:424.195 - 0.004ms returns 0
T4D60 000:424.199 JLINK_WriteReg(R10, 0x00000000)
T4D60 000:424.202 - 0.004ms returns 0
T4D60 000:424.206 JLINK_WriteReg(R11, 0x00000000)
T4D60 000:424.209 - 0.004ms returns 0
T4D60 000:424.213 JLINK_WriteReg(R12, 0x00000000)
T4D60 000:424.216 - 0.004ms returns 0
T4D60 000:424.220 JLINK_WriteReg(R13 (SP), 0x18001018)
T4D60 000:424.224 - 0.005ms returns 0
T4D60 000:424.227 JLINK_WriteReg(R14, 0x18000019)
T4D60 000:424.231 - 0.004ms returns 0
T4D60 000:424.234 JLINK_WriteReg(R15 (PC), 0x18000062)
T4D60 000:424.238 - 0.004ms returns 0
T4D60 000:424.241 JLINK_WriteReg(XPSR, 0x01000000)
T4D60 000:424.245 - 0.004ms returns 0
T4D60 000:424.248 JLINK_WriteReg(MSP, 0x18001018)
T4D60 000:424.252 - 0.004ms returns 0
T4D60 000:424.255 JLINK_WriteReg(PSP, 0x18001018)
T4D60 000:424.259 - 0.004ms returns 0
T4D60 000:424.263 JLINK_WriteReg(CFBP, 0x00000000)
T4D60 000:424.266 - 0.004ms returns 0
T4D60 000:424.270 JLINK_SetBPEx(Addr = 0x18000018, Type = 0xFFFFFFF2)
T4D60 000:424.274 - 0.005ms returns 0x00000009
T4D60 000:424.278 JLINK_Go()
T4D60 000:424.283   CPU_WriteMem(4 bytes @ 0xE0002000)
T4D60 000:424.667   CPU_ReadMem(4 bytes @ 0xE0001000)
T4D60 000:426.288 - 2.019ms
T4D60 000:426.301 JLINK_IsHalted()
T4D60 000:426.668 - 0.370ms returns FALSE
T4D60 000:426.676 JLINK_HasError()
T4D60 000:428.217 JLINK_IsHalted()
T4D60 000:428.669 - 0.460ms returns FALSE
T4D60 000:428.682 JLINK_HasError()
T4D60 000:430.125 JLINK_IsHalted()
T4D60 000:431.626 - 1.510ms returns TRUE
T4D60 000:431.639 JLINK_ReadReg(R15 (PC))
T4D60 000:431.645 - 0.007ms returns 0x18000018
T4D60 000:431.650 JLINK_ClrBPEx(BPHandle = 0x00000009)
T4D60 000:431.654 - 0.005ms returns 0x00
T4D60 000:431.658 JLINK_ReadReg(R0)
T4D60 000:431.662 - 0.005ms returns 0x00000000
T4D60 000:432.281 JLINK_HasError()
T4D60 000:432.301 JLINK_WriteReg(R0, 0x11004000)
T4D60 000:432.309 - 0.009ms returns 0
T4D60 000:432.313 JLINK_WriteReg(R1, 0x00001000)
T4D60 000:432.317 - 0.005ms returns 0
T4D60 000:432.321 JLINK_WriteReg(R2, 0x000000FF)
T4D60 000:432.324 - 0.005ms returns 0
T4D60 000:432.328 JLINK_WriteReg(R3, 0x00000000)
T4D60 000:432.333 - 0.006ms returns 0
T4D60 000:432.337 JLINK_WriteReg(R4, 0x00000000)
T4D60 000:432.340 - 0.005ms returns 0
T4D60 000:432.344 JLINK_WriteReg(R5, 0x00000000)
T4D60 000:432.347 - 0.005ms returns 0
T4D60 000:432.351 JLINK_WriteReg(R6, 0x00000000)
T4D60 000:432.354 - 0.004ms returns 0
T4D60 000:432.358 JLINK_WriteReg(R7, 0x00000000)
T4D60 000:432.362 - 0.005ms returns 0
T4D60 000:432.365 JLINK_WriteReg(R8, 0x00000000)
T4D60 000:432.369 - 0.005ms returns 0
T4D60 000:432.373 JLINK_WriteReg(R9, 0x180000CC)
T4D60 000:432.376 - 0.005ms returns 0
T4D60 000:432.380 JLINK_WriteReg(R10, 0x00000000)
T4D60 000:432.383 - 0.005ms returns 0
T4D60 000:432.387 JLINK_WriteReg(R11, 0x00000000)
T4D60 000:432.390 - 0.005ms returns 0
T4D60 000:432.394 JLINK_WriteReg(R12, 0x00000000)
T4D60 000:432.398 - 0.004ms returns 0
T4D60 000:432.401 JLINK_WriteReg(R13 (SP), 0x18001018)
T4D60 000:432.406 - 0.005ms returns 0
T4D60 000:432.409 JLINK_WriteReg(R14, 0x18000019)
T4D60 000:432.413 - 0.005ms returns 0
T4D60 000:432.417 JLINK_WriteReg(R15 (PC), 0x180000A8)
T4D60 000:432.420 - 0.005ms returns 0
T4D60 000:432.424 JLINK_WriteReg(XPSR, 0x01000000)
T4D60 000:432.428 - 0.004ms returns 0
T4D60 000:432.431 JLINK_WriteReg(MSP, 0x18001018)
T4D60 000:432.435 - 0.005ms returns 0
T4D60 000:432.438 JLINK_WriteReg(PSP, 0x18001018)
T4D60 000:432.442 - 0.005ms returns 0
T4D60 000:432.446 JLINK_WriteReg(CFBP, 0x00000000)
T4D60 000:432.449 - 0.005ms returns 0
T4D60 000:432.453 JLINK_SetBPEx(Addr = 0x18000018, Type = 0xFFFFFFF2)
T4D60 000:432.459 - 0.006ms returns 0x0000000A
T4D60 000:432.463 JLINK_Go()
T4D60 000:432.473   CPU_WriteMem(4 bytes @ 0xE0002000)
T4D60 000:432.881   CPU_ReadMem(4 bytes @ 0xE0001000)
T4D60 000:434.581 - 2.126ms
T4D60 000:434.593 JLINK_IsHalted()
T4D60 000:435.894 - 1.305ms returns TRUE
T4D60 000:435.903 JLINK_ReadReg(R15 (PC))
T4D60 000:435.907 - 0.006ms returns 0x18000018
T4D60 000:435.912 JLINK_ClrBPEx(BPHandle = 0x0000000A)
T4D60 000:435.917 - 0.007ms returns 0x00
T4D60 000:435.922 JLINK_ReadReg(R0)
T4D60 000:435.927 - 0.006ms returns 0x00000001
T4D60 000:435.933 JLINK_HasError()
T4D60 000:435.938 JLINK_WriteReg(R0, 0x11004000)
T4D60 000:435.943 - 0.007ms returns 0
T4D60 000:435.948 JLINK_WriteReg(R1, 0x00001000)
T4D60 000:435.953 - 0.006ms returns 0
T4D60 000:435.958 JLINK_WriteReg(R2, 0x000000FF)
T4D60 000:435.962 - 0.006ms returns 0
T4D60 000:435.967 JLINK_WriteReg(R3, 0x00000000)
T4D60 000:435.971 - 0.006ms returns 0
T4D60 000:435.976 JLINK_WriteReg(R4, 0x00000000)
T4D60 000:435.980 - 0.006ms returns 0
T4D60 000:435.985 JLINK_WriteReg(R5, 0x00000000)
T4D60 000:435.989 - 0.006ms returns 0
T4D60 000:435.994 JLINK_WriteReg(R6, 0x00000000)
T4D60 000:435.998 - 0.006ms returns 0
T4D60 000:436.003 JLINK_WriteReg(R7, 0x00000000)
T4D60 000:436.008 - 0.006ms returns 0
T4D60 000:436.012 JLINK_WriteReg(R8, 0x00000000)
T4D60 000:436.028 - 0.018ms returns 0
T4D60 000:436.033 JLINK_WriteReg(R9, 0x180000CC)
T4D60 000:436.038 - 0.006ms returns 0
T4D60 000:436.042 JLINK_WriteReg(R10, 0x00000000)
T4D60 000:436.047 - 0.006ms returns 0
T4D60 000:436.052 JLINK_WriteReg(R11, 0x00000000)
T4D60 000:436.056 - 0.006ms returns 0
T4D60 000:436.061 JLINK_WriteReg(R12, 0x00000000)
T4D60 000:436.065 - 0.006ms returns 0
T4D60 000:436.070 JLINK_WriteReg(R13 (SP), 0x18001018)
T4D60 000:436.074 - 0.006ms returns 0
T4D60 000:436.079 JLINK_WriteReg(R14, 0x18000019)
T4D60 000:436.085 - 0.007ms returns 0
T4D60 000:436.089 JLINK_WriteReg(R15 (PC), 0x18000062)
T4D60 000:436.092 - 0.004ms returns 0
T4D60 000:436.096 JLINK_WriteReg(XPSR, 0x01000000)
T4D60 000:436.099 - 0.005ms returns 0
T4D60 000:436.103 JLINK_WriteReg(MSP, 0x18001018)
T4D60 000:436.106 - 0.004ms returns 0
T4D60 000:436.110 JLINK_WriteReg(PSP, 0x18001018)
T4D60 000:436.113 - 0.004ms returns 0
T4D60 000:436.117 JLINK_WriteReg(CFBP, 0x00000000)
T4D60 000:436.120 - 0.004ms returns 0
T4D60 000:436.124 JLINK_SetBPEx(Addr = 0x18000018, Type = 0xFFFFFFF2)
T4D60 000:436.128 - 0.006ms returns 0x0000000B
T4D60 000:436.132 JLINK_Go()
T4D60 000:436.138   CPU_WriteMem(4 bytes @ 0xE0002000)
T4D60 000:436.533   CPU_ReadMem(4 bytes @ 0xE0001000)
T4D60 000:438.143 - 2.013ms
T4D60 000:438.149 JLINK_IsHalted()
T4D60 000:438.619 - 0.475ms returns FALSE
T4D60 000:438.629 JLINK_HasError()
T4D60 000:440.090 JLINK_IsHalted()
T4D60 000:440.459 - 0.376ms returns FALSE
T4D60 000:440.470 JLINK_HasError()
T4D60 000:441.551 JLINK_IsHalted()
T4D60 000:441.931 - 0.382ms returns FALSE
T4D60 000:441.937 JLINK_HasError()
T4D60 000:445.528 JLINK_IsHalted()
T4D60 000:446.931 - 1.413ms returns TRUE
T4D60 000:446.948 JLINK_ReadReg(R15 (PC))
T4D60 000:446.954 - 0.008ms returns 0x18000018
T4D60 000:446.958 JLINK_ClrBPEx(BPHandle = 0x0000000B)
T4D60 000:446.963 - 0.006ms returns 0x00
T4D60 000:446.967 JLINK_ReadReg(R0)
T4D60 000:446.971 - 0.005ms returns 0x00000000
T4D60 000:447.423 JLINK_HasError()
T4D60 000:447.434 JLINK_WriteReg(R0, 0x11005000)
T4D60 000:447.439 - 0.007ms returns 0
T4D60 000:447.444 JLINK_WriteReg(R1, 0x00001000)
T4D60 000:447.447 - 0.005ms returns 0
T4D60 000:447.451 JLINK_WriteReg(R2, 0x000000FF)
T4D60 000:447.454 - 0.004ms returns 0
T4D60 000:447.458 JLINK_WriteReg(R3, 0x00000000)
T4D60 000:447.461 - 0.004ms returns 0
T4D60 000:447.465 JLINK_WriteReg(R4, 0x00000000)
T4D60 000:447.468 - 0.004ms returns 0
T4D60 000:447.472 JLINK_WriteReg(R5, 0x00000000)
T4D60 000:447.475 - 0.004ms returns 0
T4D60 000:447.479 JLINK_WriteReg(R6, 0x00000000)
T4D60 000:447.482 - 0.004ms returns 0
T4D60 000:447.486 JLINK_WriteReg(R7, 0x00000000)
T4D60 000:447.489 - 0.004ms returns 0
T4D60 000:447.493 JLINK_WriteReg(R8, 0x00000000)
T4D60 000:447.497 - 0.004ms returns 0
T4D60 000:447.500 JLINK_WriteReg(R9, 0x180000CC)
T4D60 000:447.504 - 0.004ms returns 0
T4D60 000:447.507 JLINK_WriteReg(R10, 0x00000000)
T4D60 000:447.513 - 0.009ms returns 0
T4D60 000:447.519 JLINK_WriteReg(R11, 0x00000000)
T4D60 000:447.522 - 0.004ms returns 0
T4D60 000:447.526 JLINK_WriteReg(R12, 0x00000000)
T4D60 000:447.550 - 0.025ms returns 0
T4D60 000:447.554 JLINK_WriteReg(R13 (SP), 0x18001018)
T4D60 000:447.558 - 0.005ms returns 0
T4D60 000:447.562 JLINK_WriteReg(R14, 0x18000019)
T4D60 000:447.566 - 0.005ms returns 0
T4D60 000:447.569 JLINK_WriteReg(R15 (PC), 0x180000A8)
T4D60 000:447.573 - 0.005ms returns 0
T4D60 000:447.577 JLINK_WriteReg(XPSR, 0x01000000)
T4D60 000:447.580 - 0.005ms returns 0
T4D60 000:447.584 JLINK_WriteReg(MSP, 0x18001018)
T4D60 000:447.587 - 0.004ms returns 0
T4D60 000:447.591 JLINK_WriteReg(PSP, 0x18001018)
T4D60 000:447.594 - 0.004ms returns 0
T4D60 000:447.598 JLINK_WriteReg(CFBP, 0x00000000)
T4D60 000:447.602 - 0.004ms returns 0
T4D60 000:447.606 JLINK_SetBPEx(Addr = 0x18000018, Type = 0xFFFFFFF2)
T4D60 000:447.610 - 0.006ms returns 0x0000000C
T4D60 000:447.614 JLINK_Go()
T4D60 000:447.624   CPU_WriteMem(4 bytes @ 0xE0002000)
T4D60 000:448.052   CPU_ReadMem(4 bytes @ 0xE0001000)
T4D60 000:449.704 - 2.096ms
T4D60 000:449.715 JLINK_IsHalted()
T4D60 000:451.083 - 1.374ms returns TRUE
T4D60 000:451.095 JLINK_ReadReg(R15 (PC))
T4D60 000:451.099 - 0.006ms returns 0x18000018
T4D60 000:451.128 JLINK_ClrBPEx(BPHandle = 0x0000000C)
T4D60 000:451.133 - 0.007ms returns 0x00
T4D60 000:451.138 JLINK_ReadReg(R0)
T4D60 000:451.141 - 0.005ms returns 0x00000001
T4D60 000:451.145 JLINK_HasError()
T4D60 000:451.149 JLINK_WriteReg(R0, 0x11005000)
T4D60 000:451.153 - 0.005ms returns 0
T4D60 000:451.157 JLINK_WriteReg(R1, 0x00001000)
T4D60 000:451.160 - 0.004ms returns 0
T4D60 000:451.164 JLINK_WriteReg(R2, 0x000000FF)
T4D60 000:451.167 - 0.004ms returns 0
T4D60 000:451.171 JLINK_WriteReg(R3, 0x00000000)
T4D60 000:451.174 - 0.004ms returns 0
T4D60 000:451.178 JLINK_WriteReg(R4, 0x00000000)
T4D60 000:451.181 - 0.004ms returns 0
T4D60 000:451.185 JLINK_WriteReg(R5, 0x00000000)
T4D60 000:451.188 - 0.004ms returns 0
T4D60 000:451.192 JLINK_WriteReg(R6, 0x00000000)
T4D60 000:451.195 - 0.004ms returns 0
T4D60 000:451.199 JLINK_WriteReg(R7, 0x00000000)
T4D60 000:451.202 - 0.004ms returns 0
T4D60 000:451.206 JLINK_WriteReg(R8, 0x00000000)
T4D60 000:451.209 - 0.004ms returns 0
T4D60 000:451.213 JLINK_WriteReg(R9, 0x180000CC)
T4D60 000:451.216 - 0.004ms returns 0
T4D60 000:451.220 JLINK_WriteReg(R10, 0x00000000)
T4D60 000:451.223 - 0.004ms returns 0
T4D60 000:451.227 JLINK_WriteReg(R11, 0x00000000)
T4D60 000:451.230 - 0.004ms returns 0
T4D60 000:451.234 JLINK_WriteReg(R12, 0x00000000)
T4D60 000:451.237 - 0.004ms returns 0
T4D60 000:451.241 JLINK_WriteReg(R13 (SP), 0x18001018)
T4D60 000:451.244 - 0.005ms returns 0
T4D60 000:451.248 JLINK_WriteReg(R14, 0x18000019)
T4D60 000:451.251 - 0.004ms returns 0
T4D60 000:451.255 JLINK_WriteReg(R15 (PC), 0x18000062)
T4D60 000:451.259 - 0.004ms returns 0
T4D60 000:451.262 JLINK_WriteReg(XPSR, 0x01000000)
T4D60 000:451.266 - 0.005ms returns 0
T4D60 000:451.269 JLINK_WriteReg(MSP, 0x18001018)
T4D60 000:451.273 - 0.004ms returns 0
T4D60 000:451.276 JLINK_WriteReg(PSP, 0x18001018)
T4D60 000:451.280 - 0.004ms returns 0
T4D60 000:451.283 JLINK_WriteReg(CFBP, 0x00000000)
T4D60 000:451.287 - 0.004ms returns 0
T4D60 000:451.291 JLINK_SetBPEx(Addr = 0x18000018, Type = 0xFFFFFFF2)
T4D60 000:451.294 - 0.005ms returns 0x0000000D
T4D60 000:451.298 JLINK_Go()
T4D60 000:451.304   CPU_WriteMem(4 bytes @ 0xE0002000)
T4D60 000:451.721   CPU_ReadMem(4 bytes @ 0xE0001000)
T4D60 000:453.501 - 2.205ms
T4D60 000:453.509 JLINK_IsHalted()
T4D60 000:453.895 - 0.387ms returns FALSE
T4D60 000:453.902 JLINK_HasError()
T4D60 000:454.967 JLINK_IsHalted()
T4D60 000:455.336 - 0.370ms returns FALSE
T4D60 000:455.340 JLINK_HasError()
T4D60 000:456.511 JLINK_IsHalted()
T4D60 000:456.902 - 0.394ms returns FALSE
T4D60 000:456.908 JLINK_HasError()
T4D60 000:457.976 JLINK_IsHalted()
T4D60 000:459.398 - 1.438ms returns TRUE
T4D60 000:459.420 JLINK_ReadReg(R15 (PC))
T4D60 000:459.434 - 0.016ms returns 0x18000018
T4D60 000:459.440 JLINK_ClrBPEx(BPHandle = 0x0000000D)
T4D60 000:459.445 - 0.007ms returns 0x00
T4D60 000:459.451 JLINK_ReadReg(R0)
T4D60 000:459.455 - 0.008ms returns 0x00000000
T4D60 000:459.890 JLINK_HasError()
T4D60 000:459.903 JLINK_WriteReg(R0, 0x11006000)
T4D60 000:459.922 - 0.022ms returns 0
T4D60 000:459.928 JLINK_WriteReg(R1, 0x00001000)
T4D60 000:459.932 - 0.005ms returns 0
T4D60 000:459.936 JLINK_WriteReg(R2, 0x000000FF)
T4D60 000:459.939 - 0.004ms returns 0
T4D60 000:459.943 JLINK_WriteReg(R3, 0x00000000)
T4D60 000:459.946 - 0.004ms returns 0
T4D60 000:459.949 JLINK_WriteReg(R4, 0x00000000)
T4D60 000:459.953 - 0.035ms returns 0
T4D60 000:460.011 JLINK_WriteReg(R5, 0x00000000)
T4D60 000:460.015 - 0.011ms returns 0
T4D60 000:460.025 JLINK_WriteReg(R6, 0x00000000)
T4D60 000:460.028 - 0.005ms returns 0
T4D60 000:460.032 JLINK_WriteReg(R7, 0x00000000)
T4D60 000:460.035 - 0.005ms returns 0
T4D60 000:460.039 JLINK_WriteReg(R8, 0x00000000)
T4D60 000:460.043 - 0.005ms returns 0
T4D60 000:460.047 JLINK_WriteReg(R9, 0x180000CC)
T4D60 000:460.050 - 0.004ms returns 0
T4D60 000:460.054 JLINK_WriteReg(R10, 0x00000000)
T4D60 000:460.057 - 0.005ms returns 0
T4D60 000:460.061 JLINK_WriteReg(R11, 0x00000000)
T4D60 000:460.064 - 0.005ms returns 0
T4D60 000:460.068 JLINK_WriteReg(R12, 0x00000000)
T4D60 000:460.072 - 0.004ms returns 0
T4D60 000:460.075 JLINK_WriteReg(R13 (SP), 0x18001018)
T4D60 000:460.079 - 0.005ms returns 0
T4D60 000:460.083 JLINK_WriteReg(R14, 0x18000019)
T4D60 000:460.086 - 0.005ms returns 0
T4D60 000:460.090 JLINK_WriteReg(R15 (PC), 0x180000A8)
T4D60 000:460.094 - 0.005ms returns 0
T4D60 000:460.097 JLINK_WriteReg(XPSR, 0x01000000)
T4D60 000:460.101 - 0.005ms returns 0
T4D60 000:460.105 JLINK_WriteReg(MSP, 0x18001018)
T4D60 000:460.108 - 0.005ms returns 0
T4D60 000:460.112 JLINK_WriteReg(PSP, 0x18001018)
T4D60 000:460.116 - 0.004ms returns 0
T4D60 000:460.119 JLINK_WriteReg(CFBP, 0x00000000)
T4D60 000:460.123 - 0.005ms returns 0
T4D60 000:460.127 JLINK_SetBPEx(Addr = 0x18000018, Type = 0xFFFFFFF2)
T4D60 000:460.131 - 0.006ms returns 0x0000000E
T4D60 000:460.135 JLINK_Go()
T4D60 000:460.143   CPU_WriteMem(4 bytes @ 0xE0002000)
T4D60 000:460.638   CPU_ReadMem(4 bytes @ 0xE0001000)
T4D60 000:462.376 - 2.250ms
T4D60 000:462.393 JLINK_IsHalted()
T4D60 000:463.836 - 1.456ms returns TRUE
T4D60 000:463.855 JLINK_ReadReg(R15 (PC))
T4D60 000:463.862 - 0.008ms returns 0x18000018
T4D60 000:463.867 JLINK_ClrBPEx(BPHandle = 0x0000000E)
T4D60 000:463.871 - 0.006ms returns 0x00
T4D60 000:463.876 JLINK_ReadReg(R0)
T4D60 000:463.880 - 0.005ms returns 0x00000001
T4D60 000:463.885 JLINK_HasError()
T4D60 000:463.890 JLINK_WriteReg(R0, 0x11006000)
T4D60 000:463.895 - 0.006ms returns 0
T4D60 000:463.899 JLINK_WriteReg(R1, 0x00001000)
T4D60 000:463.903 - 0.005ms returns 0
T4D60 000:463.907 JLINK_WriteReg(R2, 0x000000FF)
T4D60 000:463.911 - 0.005ms returns 0
T4D60 000:463.916 JLINK_WriteReg(R3, 0x00000000)
T4D60 000:463.919 - 0.005ms returns 0
T4D60 000:463.924 JLINK_WriteReg(R4, 0x00000000)
T4D60 000:463.927 - 0.005ms returns 0
T4D60 000:463.932 JLINK_WriteReg(R5, 0x00000000)
T4D60 000:463.936 - 0.005ms returns 0
T4D60 000:463.940 JLINK_WriteReg(R6, 0x00000000)
T4D60 000:463.943 - 0.005ms returns 0
T4D60 000:463.948 JLINK_WriteReg(R7, 0x00000000)
T4D60 000:463.952 - 0.005ms returns 0
T4D60 000:463.956 JLINK_WriteReg(R8, 0x00000000)
T4D60 000:463.960 - 0.005ms returns 0
T4D60 000:463.964 JLINK_WriteReg(R9, 0x180000CC)
T4D60 000:463.968 - 0.005ms returns 0
T4D60 000:463.972 JLINK_WriteReg(R10, 0x00000000)
T4D60 000:463.975 - 0.005ms returns 0
T4D60 000:463.980 JLINK_WriteReg(R11, 0x00000000)
T4D60 000:463.983 - 0.005ms returns 0
T4D60 000:463.988 JLINK_WriteReg(R12, 0x00000000)
T4D60 000:463.991 - 0.005ms returns 0
T4D60 000:463.996 JLINK_WriteReg(R13 (SP), 0x18001018)
T4D60 000:464.000 - 0.005ms returns 0
T4D60 000:464.005 JLINK_WriteReg(R14, 0x18000019)
T4D60 000:464.009 - 0.005ms returns 0
T4D60 000:464.018 JLINK_WriteReg(R15 (PC), 0x18000062)
T4D60 000:464.024 - 0.008ms returns 0
T4D60 000:464.029 JLINK_WriteReg(XPSR, 0x01000000)
T4D60 000:464.033 - 0.005ms returns 0
T4D60 000:464.037 JLINK_WriteReg(MSP, 0x18001018)
T4D60 000:464.041 - 0.005ms returns 0
T4D60 000:464.045 JLINK_WriteReg(PSP, 0x18001018)
T4D60 000:464.049 - 0.005ms returns 0
T4D60 000:464.053 JLINK_WriteReg(CFBP, 0x00000000)
T4D60 000:464.057 - 0.005ms returns 0
T4D60 000:464.061 JLINK_SetBPEx(Addr = 0x18000018, Type = 0xFFFFFFF2)
T4D60 000:464.066 - 0.006ms returns 0x0000000F
T4D60 000:464.070 JLINK_Go()
T4D60 000:464.079   CPU_WriteMem(4 bytes @ 0xE0002000)
T4D60 000:464.541   CPU_ReadMem(4 bytes @ 0xE0001000)
T4D60 000:466.282 - 2.220ms
T4D60 000:466.296 JLINK_IsHalted()
T4D60 000:466.650 - 0.361ms returns FALSE
T4D60 000:466.663 JLINK_HasError()
T4D60 000:472.899 JLINK_IsHalted()
T4D60 000:474.308 - 1.411ms returns TRUE
T4D60 000:474.315 JLINK_ReadReg(R15 (PC))
T4D60 000:474.324 - 0.010ms returns 0x18000018
T4D60 000:474.333 JLINK_ClrBPEx(BPHandle = 0x0000000F)
T4D60 000:474.338 - 0.006ms returns 0x00
T4D60 000:474.342 JLINK_ReadReg(R0)
T4D60 000:474.346 - 0.005ms returns 0x00000000
T4D60 000:474.938 JLINK_HasError()
T4D60 000:474.951 JLINK_WriteReg(R0, 0x11007000)
T4D60 000:474.958 - 0.008ms returns 0
T4D60 000:474.963 JLINK_WriteReg(R1, 0x00001000)
T4D60 000:474.966 - 0.005ms returns 0
T4D60 000:474.970 JLINK_WriteReg(R2, 0x000000FF)
T4D60 000:474.974 - 0.041ms returns 0
T4D60 000:475.015 JLINK_WriteReg(R3, 0x00000000)
T4D60 000:475.018 - 0.005ms returns 0
T4D60 000:475.022 JLINK_WriteReg(R4, 0x00000000)
T4D60 000:475.025 - 0.004ms returns 0
T4D60 000:475.029 JLINK_WriteReg(R5, 0x00000000)
T4D60 000:475.032 - 0.004ms returns 0
T4D60 000:475.036 JLINK_WriteReg(R6, 0x00000000)
T4D60 000:475.039 - 0.004ms returns 0
